#Digilent WaveForms Impedance Analyzer
#Device Name: Discovery3
#Serial Number: SN:210415B99FD9
#Date Time: 
#Digilent WaveForms Impedance Analyzer Trace#Trace: Trace
#Start: 1000 Hz
#Stop: 1e+06 Hz
#Steps: 151
#Resistor: 1000 Ω
#Average: 1
#ProbeResistance: 1.008e+06 Ω
#ProbeCapacitance: 4e-11 F
#Compensation:none
#Wavegen: Wavegen1
#Amplitude: 1 V
#Offset: 0 V
#Amplification: 1 X
#Settle: 0.01 s
#MinPeriods: 16
#Scale: Logarithmic
#Channel: Channel 1
#Range: 5.24066 V
#Offset: 0.000240203 V
#Attenuation: 1 X
#Channel: Channel 2
#Range: 5.25098 V
#Offset: 0.000230232 V
#Attenuation: 1 X

Frequency (Hz),Trace th (deg),Trace |Z| (Ohm)
1000.000000000001,-47.87785670717077,1031.851191444064
1047.128548050901,-46.80956840078071,995.4341359510749
1096.478196143186,-45.97825190618188,968.5127247421746
1148.153621496884,-45.29763457619169,947.4215730387681
1202.264434617413,-44.64738329316405,927.9383595065054
1258.925411794169,-44.0264713678058,910.2291592414913
1318.256738556409,-43.39853068545445,893.2928852198478
1380.384264602885,-42.7514737140124,876.8504175656371
1445.43977074593,-42.13517753191209,861.6433093917285
1513.56124843621,-41.50472187903411,846.7886368004304
1584.893192461114,-40.8472062873733,832.3490012656305
1659.586907437563,-40.19635006667892,818.6082241492531
1737.800828749376,-39.55216902626233,805.6075845990058
1819.700858609984,-38.87474056667222,792.558097523959
1905.46071796325,-38.20041479366336,780.3575296352112
1995.262314968881,-37.50579259145214,768.3522615851276
2089.296130854041,-36.8133208591268,757.1137828747039
2187.761623949554,-36.1192509443268,746.0980335188027
2290.867652767774,-35.40958920600627,735.5146017603221
2398.832919019493,-34.69463996362903,725.1438793421138
2511.886431509582,-33.96475894909533,715.2427709801759
2630.267991895385,-33.24024146438444,705.8722143768721
2754.228703338169,-32.50601080588123,696.7964521793959
2884.031503126609,-31.76368585297114,687.83908760511
3019.951720402019,-31.02669772563923,679.564405380096
3162.277660168382,-30.30552993810205,671.5202348564636
3311.311214825914,-29.57003422190089,663.9544172432817
3467.368504525317,-28.85609860597542,656.600948442122
3630.780547701017,-28.12200407281891,649.5228502742506
3801.893963205617,-27.40980803360532,642.7862426191425
3981.071705534973,-26.68196647475834,636.2666341148231
4168.693834703359,-25.96014975032245,630.3295179585704
4365.158322401665,-25.26330673005487,624.4548877210157
4570.881896148752,-24.55106002585137,618.8046539583864
4786.300923226389,-23.85977744444186,613.3841942057206
5011.87233627273,-23.16468469338834,608.3776593283364
5248.074602497728,-22.49714478422136,603.6118773884757
5495.408738576254,-21.84192914265255,599.2139422928855
5754.399373371578,-21.19029751794197,594.7840121890642
6025.59586074358,-20.54914013852052,590.6160324798717
6309.573444801937,-19.91791411668472,586.6018673936551
6606.934480075965,-19.29853209893721,582.8829481203878
6918.30970918937,-18.70574443672409,579.4760610214136
7244.359600749906,-18.11629465692792,576.0412318420363
7585.775750291844,-17.56309721919818,572.7060608586639
7943.282347242821,-16.97999810749499,569.5549985345776
8317.637711026719,-16.44478172199555,566.584409847128
8709.635899560815,-15.91172758707753,563.8697626069647
9120.108393559105,-15.39218269948427,561.3671406504077
9549.925860214369,-14.89371503860906,558.8531147862473
10000,-14.40979859125516,556.3947643586858
10471.28548050901,-13.93028189859155,554.0782816172062
10964.78196143186,-13.47851656611727,551.8265810639938
11481.53621496883,-13.02472285851535,549.7861098005739
12022.64434617414,-12.59434663611403,547.8426239237052
12589.25411794168,-12.16467557288693,546.0072485665083
13182.56738556407,-11.74855359387467,544.1029380661766
13803.84264602886,-11.36670091737997,542.2681581546002
14454.39770745929,-10.97394783302395,540.5948203315827
15135.61248436209,-10.60114420324346,539.0049751285089
15848.93192461115,-10.23908801016579,537.5646995101642
16595.86907437562,-9.878036275331487,536.0898801587226
17378.00828749376,-9.553020847214592,534.6659254431291
18197.00858609984,-9.213356525036748,533.2795748697993
19054.60717963249,-8.894740612377076,531.9395653578396
19952.62314968881,-8.584290954784226,530.7032716058189
20892.96130854039,-8.286748347412194,529.6362368270796
21877.61623949554,-7.991610465000466,528.5209928721964
22908.67652767775,-7.708197530207173,527.4023969193992
23988.32919019491,-7.421807156998677,526.2300553220348
25118.86431509582,-7.16063793956975,525.2067681324694
26302.67991895384,-6.896882126184578,524.2744728820466
27542.28703338168,-6.649920245517338,523.2936656424414
28840.31503126608,-6.396223833384814,522.4874557168088
30199.51720402019,-6.178667285885921,521.6547067715953
31622.77660168381,-5.926257565590986,520.8297224139862
33113.11214825913,-5.717627263088288,520.0523398284314
34673.68504525317,-5.484469096477124,519.2714619954869
36307.80547701016,-5.292626430761206,518.5697425530896
38018.93963205612,-5.080397656196516,517.9479116289696
39810.71705534973,-4.876653234770284,517.1906823174726
41686.93834703357,-4.686892636292655,516.5780758203518
43651.58322401661,-4.498224273259969,516.0636799699112
45708.81896148752,-4.317008604174097,515.5087919329419
47863.00923226388,-4.136398323212377,514.8830816420443
50118.72336272725,-3.981769005076572,514.3685514474001
52480.74602497728,-3.794900849086469,513.671005857646
54954.08738576245,-3.646150788407615,513.2363890292321
57543.99373371572,-3.473002107583876,512.8472203830806
60255.95860743581,-3.309497321688301,512.4717392235624
63095.73444801933,-3.17211435464144,512.0986037323146
66069.34480075965,-3.03067423233136,511.5286948557786
69183.09709189367,-2.902806919694298,511.1376703410454
72443.59600749903,-2.719968458588683,510.772401606455
75857.75750291844,-2.577675851137351,510.283884362211
79432.82347242818,-2.46481347852008,510.0538579240625
83176.37711026713,-2.325545640112985,509.6867711493991
87096.35899560805,-2.186312851435723,509.2417847057537
91201.08393559101,-2.070167397274747,509.0739500295351
95499.25860214364,-1.924704991326602,508.7888315436371
100000,-1.803689224722695,508.7358393626264
104712.85480509,-1.687953579516533,508.4878609578017
109647.8196143186,-1.563787703135424,508.1160646796031
114815.3621496883,-1.462651863709756,507.6818178770486
120226.4434617413,-1.331813073214142,507.6670097290872
125892.5411794167,-1.198561290350927,507.3905559717569
131825.6738556407,-1.120511723243777,507.4577536417021
138038.4264602886,-0.9811582030730407,507.1647588749788
144543.9770745928,-0.8776054728838002,507.1593334080006
151356.1248436209,-0.7842277214710713,506.9174617729115
158489.3192461114,-0.6740259346574465,506.6531494934192
165958.6907437561,-0.5298720638590418,506.3835169300186
173780.0828749376,-0.4209443487276069,506.4922938973677
181970.0858609984,-0.3147515138869528,506.5600542868237
190546.0717963248,-0.191149166831372,506.2351917559744
199526.2314968881,-0.09379370831443269,506.3125936007227
208929.613085404,0.02552622587723136,506.2223089802386
218776.1623949553,0.1300642760659285,506.3815873086374
229086.7652767773,0.2684943682642418,506.3699430798405
239883.2919019491,0.3686264783048455,506.5295221718401
251188.6431509582,0.4974992673096332,506.5287458597334
263026.7991895382,0.6120897698554594,506.5222094826791
275422.8703338167,0.737567431231813,506.6295757726995
288403.1503126606,0.8776842329882171,506.738769951351
301995.1720402017,0.9664600919321578,506.9982342774925
316227.766016838,1.098390127500011,507.1525198728435
331131.121482591,1.24115162962889,507.2681071546178
346736.8504525317,1.371698850976145,507.6304902850102
363078.0547701015,1.502272965141529,507.8908715255061
380189.3963205612,1.652043249519666,508.1606667262409
398107.1705534974,1.745675607070135,508.606945532495
416869.3834703353,1.907522501244737,508.9455781092005
436515.832240166,2.031585978542807,509.2567996756848
457088.1896148752,2.182181628590691,509.7094713059113
478630.0923226383,2.340642976164296,510.390045260164
501187.2336272725,2.490061735206022,510.8168825398585
524807.4602497725,2.644987440352008,511.4770169069384
549540.8738576246,2.795531499512924,512.1500179119832
575439.9373371572,2.950322262351782,512.7654057157848
602559.5860743576,3.091145362528101,513.5096846247246
630957.3444801933,3.25799839069071,514.3150498351829
660693.4480075957,3.41509819983598,515.24543955203
691830.9709189365,3.59817266615169,516.3634277927122
724435.9600749902,3.74567325931448,517.4264437355935
758577.5750291836,3.914660458432239,518.5980893028664
794328.2347242816,4.08986411091299,519.7508466799522
831763.7711026713,4.24851529604581,521.2204415818845
870963.5899560805,4.424709772521854,522.4754294333392
912010.8393559098,4.58711515861094,524.0709811585604
954992.5860214357,4.734797983079162,525.5769644486979
1000000,4.920010467575985,527.4519259341149
